Circuit: * D:\Users\lucas\Desktop\IC ELETRONICOS\2E_JFET\2E_FREQ\2E_JFET_FREQ.asc

Direct Newton iteration for .op point succeeded.
Semiconductor Device Operating Points:
                        --- Bipolar Transistors ---
Name:       q9          q1          q5          q4          q8
Model:    2sa970      2sa970      2sa970      2sa970      2sc2240
Ib:      -3.81e-05   -9.36e-06   -2.10e-06   -1.73e-06    5.01e-05
Ic:      -2.05e-02   -4.42e-03   -9.97e-04   -9.90e-04    2.05e-02
Vbe:     -6.26e-01   -5.90e-01   -5.50e-01   -5.45e-01    6.74e-01
Vbc:      2.70e+01    1.33e+01    1.51e+01    3.02e+01   -2.76e+01
Vce:     -2.76e+01   -1.39e+01   -1.57e+01   -3.08e+01    2.83e+01
BetaDC:   5.38e+02    4.73e+02    4.75e+02    5.71e+02    4.09e+02
Gm:       7.24e-01    1.67e-01    3.83e-02    3.81e-02    7.05e-01
Rpi:      6.85e+02    2.81e+03    1.28e+04    1.55e+04    5.23e+02
Rx:       0.00e+00    0.00e+00    0.00e+00    0.00e+00    1.00e-06
Ro:       4.08e+03    1.58e+04    7.20e+04    8.78e+04    1.51e+04
Cbe:      9.15e-10    2.17e-10    5.53e-11    5.50e-11    3.95e-09
Cbc:      3.22e-12    4.21e-12    4.01e-12    3.08e-12    2.19e-12
Cjs:      0.00e+00    0.00e+00    0.00e+00    0.00e+00    0.00e+00
BetaAC:   4.96e+02    4.70e+02    4.90e+02    5.92e+02    3.68e+02
Cbx:      0.00e+00    0.00e+00    0.00e+00    0.00e+00    0.00e+00
Ft:       1.26e+08    1.20e+08    1.03e+08    1.04e+08    2.84e+07

Name:       q7          q2          q6          q3
Model:    2sc2240     2sc2240     2sc2240     2sc2240
Ib:       8.95e-06    1.05e-05    2.41e-06    2.31e-06
Ic:       3.69e-03    4.42e-03    9.85e-04    9.96e-04
Vbe:      6.28e-01    6.32e-01    5.93e-01    5.92e-01
Vbc:     -4.78e+00   -1.27e+01    0.00e+00   -1.51e+01
Vce:      5.40e+00    1.33e+01    5.93e-01    1.57e+01
BetaDC:   4.13e+02    4.23e+02    4.09e+02    4.31e+02
Gm:       1.38e-01    1.65e-01    3.75e-02    3.79e-02
Rpi:      2.93e+03    2.51e+03    1.09e+04    1.14e+04
Rx:       1.00e-06    1.00e-06    1.00e-06    1.00e-06
Ro:       7.77e+04    6.66e+04    2.87e+05    2.99e+05
Cbe:      8.26e-10    9.73e-10    2.69e-10    2.71e-10
Cbc:      3.69e-12    2.77e-12    8.23e-12    2.63e-12
Cjs:      0.00e+00    0.00e+00    0.00e+00    0.00e+00
BetaAC:   4.05e+02    4.14e+02    4.10e+02    4.32e+02
Cbx:      0.00e+00    0.00e+00    0.00e+00    0.00e+00
Ft:       2.65e+07    2.69e+07    2.16e+07    2.21e+07

                        --- JFET Transistors ---
Name:      j2          j1
Model:    j201        j201
Id:      2.50e-04    2.50e-04
Vgs:    -4.66e-01   -4.66e-01
Vds:     1.47e+01    1.46e+01
Gm:      1.08e-03    1.08e-03
Gds:     1.54e-06    1.54e-06
Cgs:     7.94e-13    7.94e-13
Cgd:     2.24e-13    2.24e-13



Date: Fri Mar 13 00:20:05 2026
Total elapsed time: 0.082 seconds.

tnom = 27
temp = 27
method = trap
totiter = 7
traniter = 0
tranpoints = 0
accept = 0
rejected = 0
matrix size = 51
fillins = 48
solver = Normal
Matrix Compiler1: 6.22 KB object code size
Matrix Compiler2: 5.32 KB object code size
